"Freq [GHz]","re(Z(1,1)) []","im(Z(1,1)) []"
9,16.5280064434814,-97.1639599776898
9.01,16.0653148330968,-94.9852660434235
9.02,15.6273146298887,-92.8793338194354
9.03,15.2122050503554,-90.842216581472
9.04,14.8183651556084,-88.8702561326485
9.05,14.444330368788,-86.9600564447557
9.06,14.0887727922744,-85.1084600173687
9.07,13.7504846093763,-83.3125266894041
9.08,13.4283640037581,-81.5695146474564
9.09,13.1214031457385,-79.8768633925851
9.1,12.8286778851343,-78.2321784480501
9.11,12.5493388612764,-76.6332176122072
9.12,12.2826037966188,-75.0778785819685
9.13,12.0277507843994,-73.5641877920678
9.14,11.7841124157304,-72.0902903335102
9.15,11.5510706193016,-70.6544408308949
9.16,11.3280521091245,-69.2549951727838
9.17,11.1145243536392,-67.8904030020978
9.18,10.909991993954,-66.5592008847403
9.19,10.7139936507259,-65.2600060844945
9.2,10.5260990687688,-63.991510880816
9.21,10.3459065563285,-62.7524773736458
9.22,10.1730406824386,-61.5417327259017
9.23,10.0071502011288,-60.3581648000065
9.24,9.84790617572276,-59.2007181497994
9.25,9.69500028018453,-58.0683903335187
9.26,9.54814325760837,-56.9602285173617
9.27,9.40706351858369,-55.8753263424549
9.28,9.2715058644065,-54.8128210310028
9.29,9.14123032200698,-53.7718907099513
9.3,9.01601107909065,-52.7517519327722
9.31,8.89563550938049,-51.751657381968
9.32,8.77990327904499,-50.7708937366688
9.33,8.66862552643306,-49.8087796912483
9.34,8.56162410812992,-48.8646641122776
9.35,8.45873090512905,-47.9379243223613
9.36,8.35978718359183,-47.0279645004996
9.37,8.26464300526242,-46.1342141895939
9.38,8.17315668312337,-45.256126902583
9.39,8.08519427833744,-44.3931788194817
9.4,8.00062913492299,-43.5448675682848
9.41,7.91934144896782,-42.7107110833327
9.42,7.84121786950206,-41.890246535291
9.43,7.7661511284312,-41.0830293274077
9.44,7.69403969718026,-40.2886321531661
9.45,7.62478746792273,-39.5066441108628
9.46,7.55830345746698,-38.7366698710151
9.47,7.49450153205089,-37.9783288928335
9.48,7.43330015145622,-37.2312546863094
9.49,7.37462213099611,-36.4950941167342
9.5,7.31839442006147,-35.7695067487269
9.51,7.26454789602553,-35.0541642270707
9.52,7.21301717241403,-34.3487496918711
9.53,7.16374042034294,-33.6529572257327
9.54,7.11665920231177,-32.9664913308331
9.55,7.07171831752078,-32.2890664339236
9.56,7.02886565795063,-31.6204064174353
9.57,6.98805207450885,-30.9602441750006
9.58,6.94923125260785,-30.3083211898214
9.59,6.91235959659243,-29.6643871344272
9.6,6.87739612248634,-29.0281994904695
9.61,6.84430235857214,-28.3995231872904
9.62,6.81304225336216,-27.7781302580924
9.63,6.78358209055655,-27.1637995126144
9.64,6.75589041062101,-26.5563162252932
9.65,6.7299379386506,-25.9554718379559
9.66,6.70569751821679,-25.3610636761533
9.67,6.68314405092435,-24.7728946782982
9.68,6.66225444143194,-24.1907731368302
9.69,6.64300754771612,-23.6145124506734
9.7,6.6253841363821,-23.0439308883027
9.71,6.60936684284831,-22.4788513607727
9.72,6.5949401362531,-21.9191012041049
9.73,6.58209028895302,-21.3645119704647
9.74,6.57080535050207,-20.8149192275908
9.75,6.5610751260209,-20.2701623659749
9.76,6.55289115888358,-19.7300844133143
9.77,6.54624671766828,-19.1945318557895
9.78,6.54113678733611,-18.663354465743
9.79,6.53755806462047,-18.1364051353598
9.8,6.53550895762737,-17.6135397159698
9.81,6.53498958966492,-17.0946168626154
9.82,6.53600180733846,-16.5794978835453
9.83,6.53854919296656,-16.0680465943125
9.84,6.5426370813916,-15.5601291761749
9.85,6.54827258127856,-15.0556140385084
9.86,6.55546460101543,-14.5543716849623
9.87,6.56422387934996,-14.0562745830974
9.88,6.57456302091915,-13.561197037264
9.89,6.58649653685116,-13.0690150644911
9.9,6.60004089064351,-12.5796062731666
9.91,6.61521454954737,-12.0928497443094
9.92,6.63203804171518,-11.6086259152398
9.93,6.65053401939803,-11.1268164654738
9.94,6.67072732851077,-10.6473042046756
9.95,6.69264508491652,-10.1699729625213
9.96,6.71631675781831,-9.69470748033759
9.97,6.74177426068511,-9.22139330439824
9.98,6.76905205018122,-8.74991668077558
9.99,6.79818723361439,-8.28016445166341
10,6.82921968546739,-7.81202395310941
10.01,6.86219217363169,-7.34538291411409
10.02,6.89715049602057,-6.88012935708311
10.03,6.93414362830311,-6.41615149964261
10.04,6.9732238835697,-5.95333765786493
10.05,7.01444708481573,-5.49157615098276
10.06,7.05787275121303,-5.0307552077174
10.07,7.10356429922878,-4.57076287438895
10.08,7.1515892597502,-4.11148692503656
10.09,7.20201951248128,-3.65281477383765
10.1,7.25493153899537,-3.194633390189
10.11,7.31040669595535,-2.73682921690104
10.12,7.36853151015396,-2.27928809205187
10.13,7.42939799717899,-1.82189517516816
10.14,7.49310400567465,-1.36453487853031
10.15,7.55975358935085,-0.90709080456044
10.16,7.62945740908979,-0.449445690432242
10.17,7.7023331677102,0.00851863874279602
10.18,7.77850608018108,0.466921306547946
10.19,7.85810938232324,0.925882409817062
10.2,7.94128488130202,1.38552302887341
10.21,8.02818355149732,1.84596522081462
10.22,8.11896617963493,2.30733199273474
10.23,8.21380406337652,2.76974725123035
10.24,8.31287976788857,3.23333572389181
10.25,8.41638794524069,3.69822284773341
10.26,8.52453622181045,4.16453461863324
10.27,8.63754615918806,4.63239739482801
10.28,8.75565429436254,5.10193764630486
10.29,8.87911326521198,5.57328164052671
10.3,9.00819302748853,6.04655505329406
10.31,9.14318216954535,6.52188249163776
10.32,9.28438933095184,6.99938691342945
10.33,9.4321447308209,7.4791889258349
10.34,9.58680181104691,7.96140594179267
10.35,9.74873899861804,8.44615117031965
10.36,9.91836158958523,8.93353241260909
10.37,10.0961037549708,9.4236506315561
10.38,10.2824306656565,9.91659825752555
10.39,10.4778407288383,10.4124571879035
10.4,10.6828679226213,10.9112964323166
10.41,10.8980842073527,11.4131693495538
10.42,11.1241019818505,11.9181104164456
10.43,11.3615765392194,12.4261314637337
10.44,11.6112084598106,12.9372173099823
10.45,11.8737458574226,13.4513207228998
10.46,12.1499863684181,13.9683566395308
10.47,12.4407787416059,14.4881955847276
10.48,12.747023849393,15.0106562439207
10.49,13.0696748984834,15.5354971751574
10.5,13.4097365730644,16.062407691339
10.51,13.7682627986687,16.5909980121219
10.52,14.1463527772526,17.1207888823374
10.53,14.5451449240254,17.6512009861577
10.54,14.9658083501664,18.1815446582297
10.55,15.4095316053571,18.7110106050824
10.56,15.8775085499445,19.2386625946426
10.57,16.3709215047581,19.7634333270063
10.58,16.890922265588,20.2841249227421
10.59,17.4386122006398,20.7994155836777
10.6,18.0150234810461,21.3078738881704
10.61,18.6211044867266,21.8079817378179
10.62,19.2577134630666,22.2981660182375
10.63,19.9256253492478,22.7768374392075
10.64,20.6255570065041,23.2424327380544
10.65,21.3582154035098,23.6934536089453
10.66,22.1243712350231,24.1284927786523
10.67,22.9249567140588,24.5462353141307
10.68,23.7611810524058,24.9454224665379
10.69,24.6346511807171,25.3247670398223
10.7,25.547479889594,25.6828138939542
10.71,26.5023604100444,26.017746399821
10.72,27.5025868142794,26.3271481188589
10.73,28.5520038897533,26.6077366457345
10.74,29.6548774058586,26.8550913898107
10.75,30.8156839315127,27.0633979008363
10.76,32.0388261849263,27.2252284086252
10.77,33.3282835078728,27.3313731644688
10.78,34.6872069537839,27.3707322992358
10.79,36.1174655931417,27.3302754466409
10.8,37.6191469374381,27.1950776347667
10.81,39.1900122209467,26.9484450505102
10.82,40.8249088328915,26.5721522443679
10.83,42.5151491170149,26.0468213150311
10.84,44.2478780302269,25.3524810754314
10.85,46.0054719238383,24.4693470383752
10.86,47.7650359572212,23.3788575952697
10.87,49.4980955923707,22.0649839986133
10.88,51.170602985011,20.5157981192712
10.89,52.7433936627517,18.7252307586971
10.9,54.1732218959502,16.6948870076375
10.91,55.4144633645634,14.4357127790332
10.92,56.4214935301911,11.969245218921
10.93,57.1516314475689,9.32815281568407
10.94,57.5683983337708,6.55580303930293
10.95,57.6447109239254,3.70470120315713
10.96,57.3655541786268,0.833818238541629
10.97,56.7296942563862,-1.99496539517741
10.98,55.7501159849106,-4.72088183256371
10.99,54.453079323008,-7.28823303588039
11,52.8759334980661,-9.64975550758765
11.01,51.0640381498622,-11.7689858140637
11.02,49.0672623776013,-13.6214213089008
11.03,46.9365421349631,-15.1944913555826
11.04,44.7208883327187,-16.4865368930775
11.05,42.4650925345196,-17.5051042352436
11.06,40.2082210990783,-18.2648856320169
11.07,37.9828587633821,-18.7856009151144
11.08,35.8149776815686,-19.090039215208
11.09,33.7242694357388,-19.2023943283004
11.1,31.7247760563119,-19.1469511602337
11.11,29.8256779910378,-18.9471235804637
11.12,28.0321294956361,-18.6248079136917
11.13,26.3460657380596,-18.1999983220908
11.14,24.76693552141,-17.6906056183643
11.15,23.2923366099947,-17.1124246648569
11.16,21.918546960885,-16.4792034289756
11.17,20.6409556167071,-15.8027761510014
11.18,19.4544029232239,-15.0932322049505
11.19,18.3534424179214,-14.3591002029629
11.2,17.3325373120121,-13.6075333774932
11.21,16.3862038124354,-12.8444872752835
11.22,15.5091122051713,-12.07488448367
11.23,14.6961550423218,-11.3027637180377
11.24,13.9424901838931,-10.5314123677516
11.25,13.2435649737688,-9.76348273907177
11.26,12.5951265398835,-9.00109292257587
11.27,11.9932221191991,-8.24591358652508
11.28,11.4341924120639,-7.49924215952858
11.29,10.9146602485454,-6.76206589086967
11.3,10.4315162770941,-6.03511521810897
11.31,9.98190293851278,-5.31890876563759
11.32,9.56319764259281,-4.61379116918787
11.33,9.17299580064258,-3.9199647856766
11.34,8.80909416733899,-3.23751621489219
11.35,8.46947479577481,-2.56643843507195
11.36,8.15228979883617,-1.90664924118552
11.37,7.85584702907036,-1.25800657388076
11.38,7.57859673084415,-0.620321238533065
11.39,7.31911917730372,0.00663256294302276
11.4,7.07611327612525,0.623108530901506
11.41,6.84838610900005,1.22938109720269
11.42,6.63484335772015,1.82573953264232
11.43,6.43448056271376,2.41248312093285
11.44,6.24637515649499,2.98991722185168
11.45,6.06967921366163,3.55835007501283
11.46,5.90361286000539,4.11809021994375
11.47,5.74745828539928,4.66944442848307
11.48,5.60055430796467,5.21271606255102
11.49,5.46229144028757,5.7482037846174
11.5,5.33210741192251,6.27620056013688
11.51,5.20948310594284,6.79699290121298
11.52,5.09393887075177,7.31086030912081
11.53,4.98503117169924,7.81807488030805
11.54,4.88234955020123,8.31890104634914
11.55,4.78551386101163,8.81359542321958
11.56,4.69417176103611,9.30240674935855
11.57,4.60799642560294,9.78557589540935
11.58,4.5266844704197,10.2633359314008
11.59,4.4499540595567,10.7359122395286
11.6,4.37754318171702,11.2035226627102
11.61,4.30920807879491,11.6663776807644
11.62,4.24472181229885,12.1246806074766
11.63,4.18387295463718,12.5786278029896
11.64,4.1264643935478,13.0284088969441
11.65,4.07231223910807,13.4742070186193
11.66,4.02124482380123,13.916199031012
11.67,3.97310178705104,14.3545557663709
11.68,3.92773323647767,14.7894422611818
11.69,3.88499897888352,15.2210179890008
11.7,3.84476781465793,15.6494370898701
11.71,3.80691688989975,16.074848595324
11.72,3.77133110110675,16.4973966482279
11.73,3.73790254777388,16.9172207168823
11.74,3.70653002868646,17.3344558029822
11.75,3.67711857809392,17.7492326431534
11.76,3.64957903830929,18.1616779038933
11.77,3.62382766560262,18.5719143698297
11.78,3.59978576654851,18.980061125286
11.79,3.57737936225054,19.386233729193
11.8,3.55653887810184,19.790544383438
11.81,3.5371988569551,20.1931020947748
11.82,3.51929769376796,20.5940128304468
11.83,3.50277738996393,20.9933796676997
11.84,3.48758332590648,21.3913029373712
11.85,3.47366405002628,21.7878803617615
11.86,3.46097108327021,22.1832071869927
11.87,3.44945873765801,22.5773763100731
11.88,3.43908394783712,22.9704784008795
11.89,3.42980611462334,23.3626020192772
11.9,3.42158695960077,23.7538337275909
11.91,3.41439038993425,24.1442581986379
11.92,3.40818237261877,24.5339583195339
11.93,3.40293081745588,24.9230152914738
11.94,3.39860546810607,25.3115087256866
11.95,3.39517780062069,25.6995167357563
11.96,3.39262092890552,26.0871160264982
11.97,3.39090951661355,26.4743819795699
11.98,3.39001969500519,26.8613887359923
11.99,3.38992898635147,27.2482092757492
12,3.39061623249024,27.6349154946296
12.01,3.3920615281763,28.0215782784678
12.02,3.39424615889498,28.408267574932
12.03,3.39715254283526,28.7950524630079
12.04,3.40076417674187,29.182001220315
12.05,3.40506558538837,29.5691813883921
12.06,3.41004227443302,29.9566598360771
12.07,3.41568068643795,30.3445028211095
12.08,3.42196815984916,30.7327760500728
12.09,3.42889289075057,31.1215447367905
12.1,3.43644389721957,31.5108736592891
12.11,3.44461098612529,31.9008272154332
12.12,3.45338472222253,32.2914694773359
12.13,3.46275639940589,32.6828642446439
12.14,3.47271801399927,33.0750750967931
12.15,3.48326223996525,33.4681654443294
12.16,3.49438240592799,33.8621985793821
12.17,3.50607247391175,34.2572377253804
12.18,3.51832701970449,34.6533460860954
12.19,3.53114121476368,35.0505868940933
12.2,3.54451080958754,35.4490234586779
12.21,3.55843211848183,35.8487192134037
12.22,3.57290200565745,36.2497377632352
12.23,3.58791787260006,36.6521429314306
12.24,3.60347764665782,37.0559988062215
12.25,3.61957977079792,37.4613697873653
12.26,3.63622319448786,37.8683206326415
12.27,3.65340736566035,38.2769165043636
12.28,3.67113222372615,38.6872230159786
12.29,3.689398193602,39.0993062788263
12.3,3.70820618072477,39.5132329491263
12.31,3.72755756702632,39.9290702752671
12.32,3.74745420784702,40.3468861454648
12.33,3.76789842976871,40.7667491358668
12.34,3.78889302935138,41.1887285591676
12.35,3.81044127276025,41.6128945138128
12.36,3.83254689627339,42.0393179338631
12.37,3.8552141076623,42.4680706395925
12.38,3.87844758844089,42.8992253888969
12.39,3.90225249698076,43.3328559295885
12.4,3.92663447249377,43.7690370526568
12.41,3.95159963988487,44.2078446465742
12.42,3.97715461548129,44.6493557527288
12.43,4.00330651364659,45.0936486220698
12.44,4.03006295429091,45.5408027730513
12.45,4.05743207129094,45.990899050963
12.46,4.08542252183654,46.4440196887423
12.47,4.11404349672298,46.9002483693601
12.48,4.14330473161116,47.359670289881
12.49,4.17321651928063,47.8223722272986
12.5,4.2037897229035,48.2884426062523
12.51,4.23503579037013,48.7579715687361
12.52,4.26696676970108,49.231051045913
12.53,4.29959532558264,49.7077748321538
12.54,4.33293475706698,50.1882386614267
12.55,4.36699901648175,50.6725402861653
12.56,4.40180272959735,51.1607795587504
12.57,4.43736121710442,51.6530585157496
12.58,4.473690517458,52.1494814650599
12.59,4.51080741114994,52.6501550761116
12.6,4.54872944647459,53.1551884732935
12.61,4.58747496685909,53.6646933327722
12.62,4.62706313983429,54.178783982885
12.63,4.66751398772758,54.6975775082931
12.64,4.7088484201654,55.2211938580944
12.65,4.75108826847977,55.7497559581051
12.66,4.79425632211906,56.2833898275285
12.67,4.83837636717122,56.8222247002416
12.68,4.88347322711558,57.3663931509458
12.69,4.92957280592656,57.9160312264353
12.7,4.97670213366302,58.4712785822581
12.71,5.02488941468487,59.0322786250524
12.72,5.07416407865045,59.5991786608641
12.73,5.12455683445755,60.1721300497635
12.74,5.17609972730412,60.7512883670992
12.75,5.22882619905623,61.3368135717489
12.76,5.28277115212542,61.9288701817436
12.77,5.33797101707176,62.5276274576693
12.78,5.39446382416476,63.1332595942682
12.79,5.45228927915179,63.7459459206933
12.8,5.51148884350162,64.3658711098921
12.81,5.57210581941105,64.9932253976311
12.82,5.63418543988361,65.6282048116932
12.83,5.69777496421355,66.2710114118277
12.84,5.76292377923226,66.9218535410585
12.85,5.8296835067028,67.5809460889943
12.86,5.89810811727721,68.2485107678368
12.87,5.96825405146346,68.9247764018115
12.88,6.04018034808385,69.6099792308084
12.89,6.11394878074462,70.304363229058
12.9,6.18962400287754,71.0081804397338
12.91,6.26727370195913,71.7216913264251
12.92,6.3469687635618,72.4451651424852
12.93,6.4287834459445,73.1788803193387
12.94,6.51279556594808,73.9231248748915
12.95,6.59908669702409,74.6781968432781
12.96,6.68774238029362,75.444404727256
12.97,6.77885234961006,76.222067974657
12.98,6.87251077167966,77.0115174803991
12.99,6.96881650238545,77.8130961156715
13,7.0678733605581,78.6271592860183
