"Freq [GHz]","re(Z(1,1)) [] - Wcuartos='0.6mm' Wpar='7mm'","im(Z(1,1)) [] - Wcuartos='0.6mm' Wpar='7mm'"
9,1.3313851335533,7.6410873094842
9.01,1.33760790370067,7.63154403612396
9.02,1.34388368284816,7.62218122224698
9.03,1.35021318726697,7.61300221625138
9.04,1.35659716806575,7.60401042232753
9.05,1.36303641192983,7.59520930162273
9.06,1.3695317418871,7.58660237344116
9.07,1.37608401810112,7.57819321647889
9.08,1.38269413869298,7.56998547009608
9.09,1.38936304059263,7.56198283562711
9.1,1.39609170042132,7.55418907773001
9.11,1.40288113540604,7.54660802577596
9.12,1.40973240432759,7.53924357528083
9.13,1.41664660850337,7.53209968937956
9.14,1.42362489280647,7.52518040034461
9.15,1.43066844672263,7.51848981115055
9.16,1.43777850544644,7.51203209708566
9.17,1.4449563510184,7.50581150741205
9.18,1.4522033135049,7.49983236707642
9.19,1.45952077222242,7.49409907847251
9.2,1.46691015700814,7.48861612325699
9.21,1.47437294953877,7.48338806422112
9.22,1.4819106846997,7.47841954721917
9.23,1.48952495200654,7.47371530315591
9.24,1.49721739708143,7.46928015003515
9.25,1.50498972318611,7.46511899507169
9.26,1.51284369281469,7.46123683686727
9.27,1.52078112934826,7.45763876765531
9.28,1.52880391877431,7.45432997561374
9.29,1.53691401147351,7.45131574725088
9.3,1.54511342407706,7.44860146986496
9.31,1.55340424139756,7.44619263408085
9.32,1.56178861843667,7.44409483646605
9.33,1.57026878247294,7.44231378222928
9.34,1.57884703523342,7.44085528800377
9.35,1.58752575515282,7.43972528471882
9.36,1.59630739972403,7.43892982056256
9.37,1.60519450794431,7.43847506403832
9.38,1.61418970286136,7.43836730711956
9.39,1.6232956942238,7.43861296850518
9.4,1.63251528124109,7.43921859697946
9.41,1.6418513554575,7.44019087488034
9.42,1.6513069037459,7.44153662168043
9.43,1.66088501142669,7.44326279768301
9.44,1.67058886551762,7.44537650783954
9.45,1.68042175812091,7.44788500569124
9.46,1.69038708995408,7.45079569744001
9.47,1.7004883740313,7.45411614615302
9.48,1.71072923950236,7.45785407610663
9.49,1.72111343565712,7.46201737727345
9.5,1.73164483610313,7.46661410995885
9.51,1.74232744312502,7.47165250959224
9.52,1.75316539223457,7.47714099167812
9.53,1.7641629569207,7.48308815691397
9.54,1.77532455360932,7.48950279647991
9.55,1.78665474684366,7.49639389750791
9.56,1.79815825469576,7.50377064873573
9.57,1.80983995442097,7.51164244635407
9.58,1.82170488836788,7.52001890005305
9.59,1.83375827015629,7.52890983927555
9.6,1.84600549113731,7.53832531968648
9.61,1.85845212714999,7.5482756298645
9.62,1.87110394558974,7.55877129822574
9.63,1.88396691280493,7.56982310018771
9.64,1.89704720183886,7.58144206558346
9.65,1.9103512005351,7.59363948633383
9.66,1.9238855200259,7.60642692439005
9.67,1.93765700362366,7.61981621995469
9.68,1.95167273613743,7.63381949999315
9.69,1.96594005363715,7.64844918704616
9.7,1.98046655369035,7.66371800835551
9.71,1.99526010609671,7.67963900531375
9.72,2.01032886414814,7.69622554325198
9.73,2.02568127644355,7.71349132157757
9.74,2.04132609928903,7.7314503842755
9.75,2.05727240971641,7.75011713078753
9.76,2.07352961915515,7.76950632728316
9.77,2.09010748779448,7.78963311833897
9.78,2.1070161396756,7.81051303903911
9.79,2.12426607855557,7.83216202751581
9.8,2.14186820458787,7.85459643794568
9.81,2.15983383186716,7.87783305401801
9.82,2.17817470688896,7.90188910289475
9.83,2.19690302797828,7.92678226967985
9.84,2.21603146574486,7.95253071241624
9.85,2.23557318462633,7.9791530776315
9.86,2.25554186558517,8.00666851645223
9.87,2.27595173002912,8.03509670130639
9.88,2.29681756502986,8.06445784323802
9.89,2.31815474991988,8.09477270985292
9.9,2.33997928435276,8.12606264392072
9.91,2.36230781791802,8.15834958265498
9.92,2.38515768140817,8.19165607769422
9.93,2.40854691984225,8.22600531580968
9.94,2.43249432735759,8.26142114036226
9.95,2.45701948408951,8.29792807353417
9.96,2.48214279516703,8.33555133935963
9.97,2.50788553196205,8.37431688757941
9.98,2.5342698757393,8.41425141834427
9.99,2.56131896386524,8.45538240779159
10,2.58905693874523,8.497738134519
10.01,2.61750899967156,8.54134770697917
10.02,2.64670145777746,8.58624109181879
10.03,2.67666179430805,8.63244914318121
10.04,2.70741872243349,8.68000363299625
10.05,2.7390022528483,8.72893728227217
10.06,2.77144376341803,8.77928379340831
10.07,2.80477607315528,8.83107788353944
10.08,2.8390335208286,8.88435531892383
10.09,2.87425204853108,8.93915295037904
10.1,2.91046929056162,8.99550874976668
10.11,2.94772466799882,9.05346184752202
10.12,2.98605948937805,9.1130525712156
10.13,3.02551705791482,9.17432248512782
10.14,3.06614278575279,9.23731443080721
10.15,3.10798431575337,9.30207256857184
10.16,3.15109165138616,9.36864241990195
10.17,3.19551729532419,9.43707091065488
10.18,3.24131639739817,9.5074064150182
10.19,3.28854691261757,9.57969880009618
10.2,3.33726977002454,9.65399947100051
10.21,3.38754905321136,9.7303614162915
10.22,3.43945219340059,9.80883925358456
10.23,3.49305017606342,9.88948927509928
10.24,3.54841776213377,9.97236949289091
10.25,3.60563372496526,10.0575396834534
10.26,3.66478110427618,10.1450614313317
10.27,3.72594747843401,10.2349981713161
10.28,3.78922525654633,10.3274152287217
10.29,3.854711991952,10.4223798571709
10.3,3.9225107188437,10.5199612732038
10.31,3.99273031390204,10.6202306869305
10.32,4.06548588498495,10.7232613278147
10.33,4.14089918909259,10.8291284645312
10.34,4.21909908202108,10.9379094176759
10.35,4.3002220023264,11.0496835639123
10.36,4.38441249244776,11.1645323299226
10.37,4.4718237600846,11.2825391742724
10.38,4.56261828318773,11.4037895550111
10.39,4.65696846221284,11.5283708804906
10.4,4.75505732359359,11.6563724405014
10.41,4.85707927872587,11.7878853143757
10.42,4.96324094311144,11.923002252198
10.43,5.0737620206915,12.0618175246694
10.44,5.18887625880736,12.2044267364897
10.45,5.30883247965545,12.3509265973398
10.46,5.43389569455652,12.5014146436316
10.47,5.56434830783157,12.6559889031574
10.48,5.70049141756465,12.8147474935536
10.49,5.84264622102975,12.9777881441091
10.5,5.9911555330587,13.1452076288365
10.51,6.14638542611327,13.3171010968711
10.52,6.30872700128836,13.4935612841215
10.53,6.47859829988531,13.6746775876266
10.54,6.65644636553633,13.8605349812194
10.55,6.84274946708762,14.0512127478177
10.56,7.03801949252183,14.2467829998658
10.57,7.24280452405459,14.4473089550933
10.58,7.45769160409917,14.6528429297309
10.59,7.68330970096422,14.8634240055541
10.6,7.9203328818008,15.0790753204966
10.61,8.16948369829774,15.2998009249929
10.62,8.43153678773398,15.5255821375298
10.63,8.7073226879905,15.7563733230096
10.64,8.99773185968803,15.9920970063055
10.65,9.30371890136588,16.2326382207035
10.66,9.62630693406885,16.4778379766724
10.67,9.96659211926767,16.7274857204822
10.68,10.3257482579753,16.9813106345827
10.69,10.7050313983305,17.2389716123797
10.7,11.1057843527192,17.500045719276
10.71,11.5294409923623,17.7640149298809
10.72,11.9775301456453,18.0302509087234
10.73,12.4516788744198,18.297997579522
10.74,12.9536148378915,18.5663512074661
10.75,13.4851673740248,18.8342377020879
10.76,14.0482668308326,19.1003868380468
10.77,14.6449415614877,19.3633030916077
10.78,15.2773118547865,19.6212328073245
10.79,15.9475799032635,19.872127449989
10.8,16.6580147129389,20.1136027712182
10.81,17.4109306304182,20.3428938410846
10.82,18.2086579063085,20.5568060794003
10.83,19.0535034340191,20.7516626891445
10.84,19.947699511234,20.9232492707267
10.85,20.8933381876604,21.0667569089373
10.86,21.8922885193274,21.1767257059173
10.87,22.9460938956165,21.2469916147877
10.88,24.0558466107907,21.2706405365558
10.89,25.2220371137975,21.2399749917193
10.9,26.4443760153064,21.1465002569593
10.91,27.7215881161054,20.9809386136752
10.92,29.051179626829,20.73328217129
10.93,30.4291825624682,20.3928963948312
10.94,31.8498841756134,19.9486876543118
10.95,33.3055543153886,19.3893483536452
10.96,34.7861896747891,18.7036918790541
10.97,36.279300658897,17.8810860184707
10.98,37.769773331331,16.9119869292832
10.99,39.2398443718878,15.7885656368602
11,40.6692295281478,14.5054053445242
11.01,42.0354436619123,13.0602312173475
11.02,43.3143411986996,11.4546165392525
11.03,44.4808882259855,9.6945932318124
11.04,45.5101516714508,7.7910846893591
11.05,46.3784590382178,5.76007910140247
11.06,47.0646486324606,3.62247544095358
11.07,47.5513017040002,1.4035633529764
11.08,47.8258318059734,-0.867859981313425
11.09,47.8813090351139,-3.16068447641793
11.1,47.7169201892486,-5.44289584645562
11.11,47.3380078278293,-7.68306754102457
11.12,46.7556843549642,-9.85179191554421
11.13,45.98607102617,-11.9229168765117
11.14,45.0492555120967,-13.874485333694
11.15,43.9680875160671,-15.6893193812731
11.16,42.766936937167,-17.3552394364646
11.17,41.4705252329005,-18.8649512798283
11.18,40.1029136908626,-20.2156645514872
11.19,38.6866995185091,-21.4085220875886
11.2,37.2424386933111,-22.4479214222688
11.21,35.788288136041,-23.3408011250574
11.22,34.3398413336903,-24.0959496547897
11.23,32.910121284635,-24.7233771198089
11.24,31.5096913692378,-25.2337738169529
11.25,30.1468465773311,-25.6380655618365
11.26,28.8278524768756,-25.9470654208179
11.27,27.5572057003525,-26.1712145148936
11.28,26.3378963208893,-26.3204006157234
11.29,25.171658509731,-26.4038416166803
11.3,24.0592009128333,-26.4300209415914
11.31,23.0004121347143,-26.4066629435951
11.32,21.9945396233342,-26.3407378716602
11.33,21.040342253157,-26.2384877045654
11.34,20.136218181326,-26.1054658516819
11.35,19.2803102791288,-25.9465852694367
11.36,18.4705917721874,-25.7661708807878
11.37,17.7049347846528,-25.5680132951775
11.38,16.9811643728633,-25.3554217174661
11.39,16.297100424485,-25.1312746295894
11.4,15.6505895407066,-24.8980673572285
11.41,15.0395287455671,-24.6579560254423
11.42,14.4618825994486,-24.4127976896722
11.43,13.9156950457022,-24.1641866259668
11.44,13.3990970966952,-23.9134868969446
11.45,12.9103112705635,-23.6618613943461
11.46,12.4476535224102,-23.4102976080862
11.47,12.0095332718499,-23.1596303955396
11.48,11.5944520101579,-22.9105620311307
11.49,11.201000872054,-22.6636798108505
11.5,10.82785747647,-22.419471473356
11.51,10.4737822749227,-22.1783386818642
11.52,10.1376145928703,-21.9406087912975
11.53,9.81826850660166,-21.7065451045815
11.54,9.51472866393071,-21.476355801628
11.55,9.22604612970662,-21.25020170502
11.56,8.9513343155787,-21.0282030281194
11.57,8.68976503650905,-20.8104452344724
11.58,8.44056472328172,-20.5969841220525
11.59,8.20301081000258,-20.3878502320735
11.6,7.97642830769727,-20.1830526697539
11.61,7.76018656912841,-19.9825824134484
11.62,7.55369624545589,-19.7864151788576
11.63,7.35640643204756,-19.5945138964873
11.64,7.16780199836019,-19.4068308530271
11.65,6.98740109513397,-19.2233095407511
11.66,6.81475283103703,-19.0438862533059
11.67,6.64943511020735,-18.868491461242
11.68,6.49105262178344,-18.6970509962847
11.69,6.33923497240338,-18.5294870695448
11.7,6.19363495271977,-18.3657191455655
11.71,6.05392692918103,-18.2056646912336
11.72,5.91980535262349,-18.0492398160901
11.73,5.79098337557832,-17.8963598184106
11.74,5.66719157059474,-17.7469396495431
11.75,5.54817674230222,-17.6008943073607
11.76,5.43370082636614,-17.4581391682658
11.77,5.32353986891998,-17.3185902659555
11.78,5.21748308047919,-17.1821645240815
11.79,5.11533195875238,-17.0487799490155
11.8,5.01689947515693,-16.9183557881182
11.81,4.92200932022009,-16.7908126582109
11.82,4.83049520340125,-16.6660726483372
11.83,4.74220020320301,-16.5440594003714
11.84,4.65697616375142,-16.4246981705689
11.85,4.57468313431652,-16.3079158747518
11.86,4.49518884851654,-16.1936411194706
11.87,4.41836824020021,-16.0818042211832
11.88,4.34410299323651,-15.9723372152203
11.89,4.27228112265624,-15.8651738560811
11.9,4.20279658479099,-15.7602496103967
11.91,4.13554891423829,-15.6575016437248
11.92,4.07044288565325,-15.5568688021872
11.93,4.00738819852267,-15.4582915898243
11.94,3.94629918322293,-15.3617121424276
11.95,3.8870945267954,-15.2670741985069
11.96,3.82969701699535,-15.1743230679616
11.97,3.77403330328322,-15.083405598947
11.98,3.72003367353043,-14.9942701433591
11.99,3.66763184530682,-14.9068665213018
12,3.61676477070472,-14.8211459848513
12.01,3.56737245373401,-14.7370611813829
12.02,3.51939777939872,-14.6545661166917
12.03,3.47278635363045,-14.5736161180999
12.04,3.4274863533198,-14.4941677977165
12.05,3.38344838574157,-14.416179015988
12.06,3.34062535672482,-14.3396088456568
12.07,3.29897234696621,-14.2644175362232
12.08,3.25844649592945,-14.1905664789926
12.09,3.21900689281684,-14.1180181727697
12.1,3.18061447413496,-14.0467361902552
12.11,3.14323192741229,-13.9766851451843
12.12,3.10682360065965,-13.9078306602369
12.13,3.07135541719226,-13.8401393357469
12.14,3.03679479546166,-13.7735787192223
12.15,3.00311057356938,-13.7081172756881
12.16,2.97027293815914,-13.6437243588575
12.17,2.93825335740407,-13.5803701831294
12.18,2.90702451782767,-13.5180257964113
12.19,2.87656026471326,-13.4566630537587
12.2,2.84683554587584,-13.3962545918239
12.21,2.81782635858402,-13.3367738041006
12.22,2.78950969943633,-13.2781948169523
12.23,2.7618635170076,-13.2204924664099
12.24,2.73486666709527,-13.1636422757206
12.25,2.70849887040604,-13.107620433634
12.26,2.68274067253452,-13.0524037734049
12.27,2.65757340609506,-12.9979697524964
12.28,2.63297915487768,-12.9442964329645
12.29,2.60894071990674,-12.8913624625044
12.3,2.58544158729007,-12.8391470561409
12.31,2.56246589775244,-12.7876299785428
12.32,2.53999841775516,-12.7367915269437
12.33,2.51802451210924,-12.6866125146493
12.34,2.49653011799538,-12.6370742551136
12.35,2.47550172031082,-12.5881585465657
12.36,2.45492632826625,-12.5398476571691
12.37,2.43479145316224,-12.4921243106956
12.38,2.41508508727875,-12.4449716726981
12.39,2.3957956838151,-12.3983733371638
12.4,2.37691213782166,-12.3523133136329
12.41,2.3584237680687,-12.3067760147652
12.42,2.34032029980054,-12.2617462443423
12.43,2.32259184832648,-12.2172091856854
12.44,2.30522890340309,-12.1731503904804
12.45,2.288222314365,-12.129555767989
12.46,2.27156327596384,-12.0864115746396
12.47,2.25524331487764,-12.0437044039782
12.48,2.23925427685478,-12.001421176971
12.49,2.22358831445911,-11.9595491326431
12.5,2.20823787538474,-11.9180758190443
12.51,2.19319569131033,-11.8769890845279
12.52,2.17845476726528,-11.8362770693324
12.53,2.16400837148092,-11.7959281974554
12.54,2.14985002570238,-11.7559311688093
12.55,2.1359734959366,-11.7162749516477
12.56,2.12237278361534,-11.6769487752545
12.57,2.10904211715153,-11.6379421228852
12.58,2.09597594386931,-11.5992447249515
12.59,2.0831689222891,-11.5608465524407
12.6,2.07061591474996,-11.5227378105621
12.61,2.05831198035266,-11.484908932611
12.62,2.0462523682072,-11.4473505740439
12.63,2.03443251097044,-11.4100536067562
12.64,2.02284801865912,-11.3730091135573
12.65,2.01149467272529,-11.3362083828328
12.66,2.0003684203811,-11.2996429033899
12.67,1.98946536916117,-11.2633043594799
12.68,1.97878178171093,-11.2271846259878
12.69,1.96831407079047,-11.1912757637886
12.7,1.95805879448323,-11.1555700152588
12.71,1.94801265159998,-11.1200597999432
12.72,1.93817247726919,-11.0847377103662
12.73,1.92853523870425,-11.0495965079872
12.74,1.9190980311404,-11.0146291192922
12.75,1.90985807393202,-10.9798286320172
12.76,1.90081270680433,-10.9451882915012
12.77,1.891959386251,-10.9107014971602
12.78,1.88329568207199,-10.8763617990823
12.79,1.87481927404424,-10.8421628947365
12.8,1.8665279487201,-10.8080986257936
12.81,1.85841959634661,-10.774162975053
12.82,1.85049220790089,-10.7403500634749
12.83,1.84274387223601,-10.7066541473108
12.84,1.83517277333237,-10.6730696153319
12.85,1.82777718764989,-10.6395909861504
12.86,1.82055548157598,-10.6062129056302
12.87,1.81350610896608,-10.5729301443871
12.88,1.80662760877109,-10.5397375953701
12.89,1.79991860274901,-10.5066302715266
12.9,1.79337779325636,-10.4736033035452
12.91,1.78700396111598,-10.4406519376736
12.92,1.78079596355775,-10.4077715336121
12.93,1.77475273222911,-10.3749575624757
12.94,1.76887327127177,-10.3422056048264
12.95,1.76315665546226,-10.3095113487711
12.96,1.75760202841321,-10.2768705881233
12.97,1.75220860083215,-10.2442792206277
12.98,1.74697564883621,-10.2117332462427
12.99,1.74190251231921,-10.1792287654834
13,1.73698859336972,-10.1467619778176
